Sample in Buffer	Sample in Window	/vad	/DP_main/scr_o<0>	/DP_main/scr_o<1>	/DP_main/scr_o<2>	/DP_main/scr_o<3>	/DP_main/scr_o<4>	/DP_main/scr_o<5>	/DP_main/scr_o<6>	/DP_main/scr_o<7>	/DP_main/scr_o<8>	/DP_main/scr_o<9>	/DP_main/scr_o<10>	/DP_main/scr_o<11>	/DP_main/scr_o<12>	/DP_main/scr_o<13>	/DP_main/scr_o<14>	/DP_main/scr_o<15>	/DP_main/scr_o<16>	/DP_main/scr_o<17>	/DP_main/scr_o<18>	/DP_main/scr_o<19>	/DP_main/scr_o<20>	/DP_main/scr_o<21>	/DP_main/scr_o<22>	/DP_main/scr_o<23>	/DP_main/len_o<0>	/DP_main/len_o<1>	/DP_main/len_o<2>	/DP_main/len_o<3>	/DP_main/len_o<4>	/DP_main/len_o<5>	/DP_main/len_o<6>	/DP_main/len_o	/DP_main/scr_o
0	0	1	1	1	1	1	1	1	1	1	1	1	1	1	1	0	1	0	1	0	0	1	0	0	0	0	0	1	0	1	1	1	0	3A	095FFF	
1	0	1	1	1	1	1	1	1	1	1	0	1	1	0	1	1	1	0	1	0	0	1	0	0	0	0	0	1	0	1	1	1	0	3A	0976FF	
2	0	1	1	1	1	1	1	1	1	0	1	1	0	1	1	1	1	0	1	0	0	1	0	0	0	0	0	1	0	1	1	1	0	3A	097B7F	
3	0	1	1	1	0	1	1	1	1	0	0	0	1	1	1	1	1	0	1	0	0	1	0	0	0	0	0	1	0	1	1	1	0	3A	097C7B	
4	0	1	1	1	0	1	0	1	0	0	1	0	1	1	1	1	1	0	1	0	0	1	0	0	0	0	0	1	0	1	1	1	0	3A	097D2B	
5	0	1	1	1	1	1	1	1	0	0	0	1	1	1	1	1	1	0	1	0	0	1	0	0	0	0	0	1	0	1	1	1	0	3A	097E3F	
6	0	1	0	1	0	1	1	1	1	1	0	1	1	1	1	1	1	0	1	0	0	1	0	0	0	0	0	1	0	1	1	1	0	3A	097EFA	
7	0	1	0	1	1	1	0	1	1	1	0	1	1	1	1	1	0	0	1	0	0	1	0	0	0	0	0	1	0	1	1	1	0	3A	093EEE	
8	0	1	0	1	0	1	1	1	1	1	1	0	1	1	1	1	0	0	1	0	0	1	0	0	0	0	0	1	0	1	1	1	0	3A	093DFA	
9	0	1	0	1	1	1	1	1	1	1	1	0	1	1	1	1	0	0	1	0	0	1	0	0	0	0	0	1	0	1	1	1	0	3A	093DFE	
10	0	1	1	1	1	1	1	1	1	0	0	1	1	0	1	0	1	0	1	0	0	1	0	0	0	0	0	1	0	1	1	1	0	3A	09567F	
11	0	1	1	1	0	1	1	1	1	0	0	1	1	1	1	1	1	0	1	0	0	1	0	0	0	0	0	1	0	1	1	1	0	3A	097E7B	
12	0	1	1	1	0	1	1	1	1	0	1	1	1	1	1	1	1	0	1	0	0	1	0	0	0	0	0	1	0	1	1	1	0	3A	097F7B	
13	0	1	0	1	1	1	1	1	0	1	1	1	1	1	1	1	0	0	1	0	0	1	0	0	0	0	0	1	0	1	1	1	0	3A	093FBE	
14	0	1	1	0	1	0	1	1	0	1	0	1	1	1	1	1	1	0	0	0	0	1	0	0	0	0	0	1	0	1	1	1	0	3A	087EB5	
15	0	1	0	1	1	0	1	1	0	1	0	1	1	1	1	1	1	0	0	0	0	1	0	0	0	0	0	1	0	1	1	1	0	3A	087EB6	
16	0	1	0	1	1	0	0	1	0	1	1	1	1	1	1	0	1	1	0	0	0	1	0	0	0	0	0	1	0	1	1	1	0	3A	08DFA6	
17	0	1	0	1	1	0	1	1	1	1	1	1	1	1	1	1	1	1	0	0	0	1	0	0	0	0	0	1	0	1	1	1	0	3A	08FFF6	
18	0	1	1	1	1	0	1	1	1	1	1	1	1	1	1	1	1	1	1	1	1	0	0	0	0	0	0	1	0	1	1	1	0	3A	07FFF7	
19	0	1	1	0	0	0	1	1	1	1	1	1	1	1	1	1	1	1	1	1	1	0	0	0	0	0	0	1	0	1	1	1	0	3A	07FFF1	
20	0	1	1	1	0	0	1	1	1	0	1	1	1	0	1	0	1	1	0	0	0	1	0	0	0	0	0	1	0	1	1	1	0	3A	08D773	
21	0	1	1	1	0	1	1	1	1	1	1	1	0	1	0	1	1	0	1	1	1	0	0	0	0	0	0	1	0	1	1	1	0	3A	076BFB	
22	0	1	1	1	1	0	1	1	1	1	0	1	0	1	1	1	1	0	1	1	1	0	0	0	0	0	0	1	0	1	1	1	0	3A	077AF7	
23	0	1	1	1	0	1	1	1	0	1	1	1	1	1	1	1	1	0	1	1	1	0	0	0	0	0	0	1	0	1	1	1	0	3A	077FBB	
24	0	1	1	0	0	1	1	1	1	1	1	0	1	1	1	1	1	0	1	1	1	0	0	0	0	0	0	1	0	1	1	1	0	3A	077DF9	
25	0	1	1	1	0	1	1	1	1	1	0	1	1	1	1	1	0	0	1	1	1	0	0	0	0	0	0	1	0	1	1	1	0	3A	073EFB	
26	0	1	1	1	0	1	1	1	1	1	1	1	1	1	1	0	1	1	0	1	1	0	0	0	0	0	0	1	0	1	1	1	0	3A	06DFFB	
27	0	1	1	0	1	1	1	1	1	1	0	1	0	1	1	0	1	1	0	1	1	0	0	0	0	0	0	1	0	1	1	1	0	3A	06DAFD	
28	0	1	1	0	1	1	1	1	1	1	0	1	1	1	1	0	1	1	0	1	1	0	0	0	0	0	0	1	0	1	1	1	0	3A	06DEFD	
29	0	1	1	1	0	1	0	1	1	0	1	1	1	0	1	1	1	1	0	1	1	0	0	0	0	0	0	1	0	1	1	1	0	3A	06F76B	
30	0	1	1	1	1	1	0	1	1	0	1	1	1	1	1	1	1	1	0	1	1	0	0	0	0	0	0	1	0	1	1	1	0	3A	06FF6F	
31	0	1	0	1	0	1	0	1	1	0	0	1	1	1	1	0	1	1	0	1	1	0	0	0	0	0	0	1	0	1	1	1	0	3A	06DE6A	
32	0	1	0	1	0	1	0	1	1	0	0	1	1	1	1	1	1	0	0	1	1	0	0	0	0	0	0	1	0	1	1	1	0	3A	067E6A	
33	0	1	0	1	1	1	0	1	0	1	1	1	1	1	1	1	1	0	0	1	1	0	0	0	0	0	0	1	0	1	1	1	0	3A	067FAE	
34	0	1	1	1	1	0	1	0	0	1	0	1	1	1	1	1	1	0	0	1	1	0	0	0	0	0	0	1	0	1	1	1	0	3A	067E97	
35	0	1	1	1	1	0	1	0	0	0	1	1	1	1	1	1	1	1	0	1	1	0	0	0	0	0	0	1	0	1	1	1	0	3A	06FF17	
36	0	1	1	1	0	1	0	0	1	0	0	0	1	1	1	1	1	1	0	1	1	0	0	0	0	0	0	1	0	1	1	1	0	3A	06FC4B	
37	0	1	1	1	0	1	1	0	1	1	1	0	1	1	1	0	1	1	0	1	1	0	0	0	0	0	0	1	0	1	1	1	0	3A	06DDDB	
38	0	1	1	1	1	1	1	1	1	1	0	1	1	1	1	1	0	1	0	1	1	0	0	0	0	0	0	1	0	1	1	1	0	3A	06BEFF	
39	0	1	1	1	0	1	1	1	1	1	1	1	1	0	1	1	1	1	0	1	1	0	0	0	0	0	0	1	0	1	1	1	0	3A	06F7FB	
40	0	1	1	0	0	1	1	1	1	1	0	1	0	0	1	0	1	1	0	1	1	0	0	0	0	0	0	1	0	1	1	1	0	3A	06D2F9	
41	0	1	1	1	0	1	0	1	1	1	1	1	0	0	1	1	0	1	0	1	1	0	0	0	0	0	0	1	0	1	1	1	0	3A	06B3EB	
42	0	1	1	1	1	1	0	1	1	1	1	1	1	0	1	1	0	1	0	1	1	0	0	0	0	0	0	1	0	1	1	1	0	3A	06B7EF	
43	0	1	1	1	0	1	0	1	1	1	0	1	1	0	1	1	0	1	0	1	1	0	0	0	0	0	0	1	0	1	1	1	0	3A	06B6EB	
44	0	1	1	1	0	1	1	1	1	1	0	1	1	1	1	1	0	1	0	1	1	0	0	0	0	0	0	1	0	1	1	1	0	3A	06BEFB	
45	0	1	1	1	1	1	1	1	0	1	0	0	1	1	1	1	0	1	0	1	1	0	0	0	0	0	1	1	0	1	1	1	0	3B	06BCBF	
46	0	1	0	0	0	0	1	0	0	0	0	1	1	1	1	1	0	1	0	1	1	0	0	0	0	0	0	0	1	1	1	1	0	3C	06BE10	
47	0	1	0	0	0	0	0	0	1	0	0	1	1	1	1	0	1	1	0	1	1	0	0	0	0	0	0	0	1	1	1	1	0	3C	06DE40	
48	0	1	1	1	1	0	1	1	1	0	1	1	1	0	1	0	1	1	0	1	1	0	0	0	0	0	0	0	1	1	1	1	0	3C	06D777	
49	0	1	1	1	1	0	1	1	1	0	0	0	1	1	1	0	1	1	1	1	1	0	0	0	0	0	1	1	1	1	1	1	0	3F	07DC77	
50	0	1	1	1	1	1	1	1	1	1	0	1	1	0	1	1	1	0	1	0	0	1	0	0	0	0	0	1	0	1	1	1	0	3A	0976FF	
51	0	1	1	1	0	1	1	1	1	1	0	1	1	0	1	1	1	0	1	0	0	1	0	0	0	0	0	1	0	1	1	1	0	3A	0976FB	
52	0	1	1	0	0	1	1	1	0	1	1	1	1	0	1	1	1	0	1	0	0	1	0	0	0	0	0	1	0	1	1	1	0	3A	0977B9	
53	0	1	1	1	1	1	1	1	1	1	1	0	1	0	1	1	1	0	1	0	0	1	0	0	0	0	0	1	0	1	1	1	0	3A	0975FF	
54	0	1	1	1	1	1	1	1	1	1	1	0	1	0	1	1	1	1	1	0	0	1	0	0	0	0	0	1	0	1	1	1	0	3A	09F5FF	
55	0	1	1	0	1	1	1	0	1	1	1	1	1	0	0	1	1	1	1	0	0	1	0	0	0	0	0	1	0	1	1	1	0	3A	09E7DD	
56	0	1	1	0	0	1	1	0	1	1	1	1	1	1	1	1	1	0	1	0	0	1	0	0	0	0	0	1	0	1	1	1	0	3A	097FD9	
57	0	1	1	1	1	1	1	0	1	1	1	1	0	1	1	1	1	0	1	0	0	1	0	0	0	0	0	1	0	1	1	1	0	3A	097BDF	
58	0	1	1	1	0	1	1	0	1	1	0	1	1	1	1	1	1	0	1	0	0	1	0	0	0	0	0	1	0	1	1	1	0	3A	097EDB	
59	0	1	1	1	0	1	1	0	1	1	0	1	1	0	1	1	1	0	1	0	0	1	0	0	0	0	0	1	0	1	1	1	0	3A	0976DB	
60	0	1	1	0	1	1	1	0	1	1	1	1	1	0	0	0	1	0	1	0	0	1	0	0	0	0	0	1	0	1	1	1	0	3A	0947DD	
61	0	1	1	1	1	1	1	0	1	1	0	1	1	0	0	0	1	0	1	0	0	1	0	0	0	0	0	1	0	1	1	1	0	3A	0946DF	
62	0	1	1	1	0	1	1	0	1	1	0	1	1	1	1	0	1	0	1	0	0	1	0	0	0	0	0	1	0	1	1	1	0	3A	095EDB	
63	0	1	1	0	0	1	1	1	1	0	0	1	1	1	1	0	1	0	1	0	0	1	0	0	0	0	0	1	0	1	1	1	0	3A	095E79	
64	0	1	1	1	0	1	1	1	1	1	0	0	1	1	1	0	0	0	1	1	1	0	0	0	0	0	0	1	0	1	1	1	0	3A	071CFB	
65	0	1	1	0	1	1	1	1	1	1	0	1	1	0	1	0	0	0	1	1	1	0	0	0	0	0	0	1	0	1	1	1	0	3A	0716FD	
66	0	1	1	0	0	1	1	1	1	1	0	1	0	1	1	0	0	0	1	1	1	0	0	0	0	0	0	1	0	1	1	1	0	3A	071AF9	
67	0	1	0	1	1	1	1	1	1	1	1	1	1	1	1	1	1	1	0	1	1	0	0	0	0	0	0	1	0	1	1	1	0	3A	06FFFE	
68	0	1	0	1	1	1	1	1	1	1	0	1	1	0	1	1	1	1	0	1	1	0	0	0	0	0	0	1	0	1	1	1	0	3A	06F6FE	
69	0	1	0	1	0	1	1	1	1	0	1	1	1	1	1	1	1	1	0	1	1	0	0	0	0	0	0	1	0	1	1	1	0	3A	06FF7A	
70	0	1	1	1	1	1	1	1	1	1	0	1	1	1	1	1	0	1	0	1	1	0	0	0	0	0	0	1	0	1	1	1	0	3A	06BEFF	
71	0	1	1	0	1	1	1	1	1	1	1	1	1	1	1	1	1	1	0	1	1	0	0	0	0	0	0	1	0	1	1	1	0	3A	06FFFD	
72	0	1	1	1	1	1	1	1	0	0	0	1	1	1	1	1	1	0	0	1	1	0	0	0	0	0	0	1	0	1	1	1	0	3A	067E3F	
73	0	1	1	1	1	1	1	0	0	0	0	1	1	1	0	1	1	0	0	1	1	0	0	0	0	0	0	1	0	1	1	1	0	3A	066E1F	
74	0	1	1	1	1	1	1	1	0	1	1	1	1	1	0	1	1	1	0	1	1	0	0	0	0	0	0	1	0	1	1	1	0	3A	06EFBF	
75	0	1	0	1	0	1	0	1	0	1	1	0	1	1	1	1	1	1	0	1	1	0	0	0	0	0	0	1	0	1	1	1	0	3A	06FDAA	
76	0	1	1	1	1	1	1	1	1	0	0	1	1	0	1	1	1	0	0	1	1	0	0	0	0	0	0	1	0	1	1	1	0	3A	06767F	
77	0	1	1	1	1	1	1	1	1	0	1	1	1	1	1	0	1	1	0	1	1	0	0	0	0	0	0	1	0	1	1	1	0	3A	06DF7F	
78	0	1	1	1	0	1	1	1	1	1	1	1	1	1	1	1	1	1	0	1	1	0	0	0	0	0	0	1	0	1	1	1	0	3A	06FFFB	
79	0	1	1	0	1	0	1	1	1	1	0	1	1	0	1	1	1	0	0	1	1	0	0	0	0	0	1	1	0	1	1	1	0	3B	0676F5	
80	0	1	1	0	0	1	1	1	1	1	1	1	1	1	1	1	1	0	0	1	1	0	0	0	0	0	0	0	1	1	1	1	0	3C	067FF9	
81	0	1	1	0	0	1	1	1	1	1	0	1	1	1	1	1	1	1	0	1	1	0	0	0	0	0	0	0	1	1	1	1	0	3C	06FEF9	
82	0	1	0	0	1	1	1	1	1	0	0	1	1	0	1	0	1	1	0	1	1	0	0	0	0	0	0	0	1	1	1	1	0	3C	06D67C	
83	0	1	1	0	0	1	1	1	1	1	1	1	1	1	1	0	0	1	0	1	1	0	0	0	0	0	0	1	1	1	1	1	0	3E	069FF9	
84	0	1	1	1	0	1	0	1	1	1	1	1	1	1	1	1	0	1	0	1	1	0	0	0	0	0	1	1	0	1	1	1	0	3B	06BFEB	
85	0	1	1	1	0	0	0	1	1	1	0	1	1	0	0	1	0	1	0	1	1	0	0	0	0	0	0	1	1	1	1	1	0	3E	06A6E3	
86	0	1	1	1	1	1	1	1	1	1	0	1	1	1	0	1	0	1	0	1	1	0	0	0	0	0	1	1	0	1	1	1	0	3B	06AEFF	
87	0	1	0	1	1	1	1	1	1	1	0	1	0	1	1	1	0	1	0	1	1	0	0	0	0	0	0	1	1	1	1	1	0	3E	06BAFE	
88	0	1	0	0	0	1	0	1	1	1	0	1	1	1	1	1	0	1	0	1	1	0	0	0	0	0	0	1	0	1	1	1	0	3A	06BEE8	
89	0	1	0	1	1	1	1	1	1	1	0	1	1	1	1	1	0	1	0	1	1	0	0	0	0	0	1	1	0	1	1	1	0	3B	06BEFE	
90	0	1	1	1	0	1	1	1	1	1	0	1	1	1	1	0	1	1	0	1	1	0	0	0	0	0	1	1	0	1	1	1	0	3B	06DEFB	
91	0	1	1	1	1	1	1	0	1	1	0	0	1	1	1	1	1	1	0	1	1	0	0	0	0	0	1	1	0	1	1	1	0	3B	06FCDF	
92	0	1	1	0	1	1	1	1	1	0	0	1	0	1	1	1	0	0	1	0	0	1	0	0	0	0	0	1	0	1	1	1	0	3A	093A7D	
93	0	1	1	1	1	1	1	1	1	0	0	1	0	1	1	1	0	0	1	0	0	1	0	0	0	0	0	1	0	1	1	1	0	3A	093A7F	
94	0	1	1	1	0	1	1	1	1	0	1	1	0	0	1	1	1	0	1	0	0	1	0	0	0	0	0	1	0	1	1	1	0	3A	09737B	
95	0	1	0	1	0	0	1	1	0	0	1	1	0	1	0	1	1	0	1	0	0	1	0	0	0	0	0	1	0	1	1	1	0	3A	096B32	
96	0	1	0	1	0	0	1	1	0	0	1	1	0	1	0	1	1	0	1	0	0	1	0	0	0	0	0	1	0	1	1	1	0	3A	096B32	
97	0	1	1	0	1	1	1	1	0	1	0	0	1	1	0	1	1	0	1	0	0	1	0	0	0	0	0	1	0	1	1	1	0	3A	096CBD	
98	0	1	1	1	1	1	1	1	1	1	0	1	1	0	0	1	1	0	1	0	0	1	0	0	0	0	0	1	0	1	1	1	0	3A	0966FF	
99	0	1	1	1	0	1	1	1	1	1	0	1	1	1	0	1	1	0	1	0	0	1	0	0	0	0	0	1	0	1	1	1	0	3A	096EFB	
100	0	1	1	1	0	1	1	1	1	1	0	1	1	1	0	1	1	0	1	0	0	1	0	0	0	0	0	1	0	1	1	1	0	3A	096EFB	
101	0	1	1	1	1	1	1	1	1	1	0	1	0	0	0	1	1	0	1	0	0	1	0	0	0	0	0	1	0	1	1	1	0	3A	0962FF	
102	0	1	1	1	1	0	0	1	1	1	0	1	0	1	0	1	0	0	1	0	0	1	0	0	0	0	0	1	0	1	1	1	0	3A	092AE7	
103	0	1	1	1	0	0	1	1	0	1	1	1	0	1	1	1	0	0	1	0	0	1	0	0	0	0	0	1	0	1	1	1	0	3A	093BB3	
104	0	1	1	1	1	1	1	1	1	1	0	1	0	1	1	0	0	0	1	0	0	1	0	0	0	0	0	1	0	1	1	1	0	3A	091AFF	
105	0	1	1	1	1	1	1	1	1	1	0	1	1	1	1	0	0	0	1	0	0	1	0	0	0	0	0	1	0	1	1	1	0	3A	091EFF	
106	0	1	1	1	1	1	1	1	1	1	0	1	0	1	1	1	0	1	1	1	1	0	0	0	0	0	0	1	0	1	1	1	0	3A	07BAFF	
107	0	1	1	1	1	1	0	1	1	1	0	1	1	1	1	1	0	1	1	1	1	0	0	0	0	0	0	1	0	1	1	1	0	3A	07BEEF	
108	0	1	1	1	0	1	0	1	1	1	0	1	1	1	1	1	0	1	1	1	1	0	0	0	0	0	0	1	0	1	1	1	0	3A	07BEEB	
109	0	1	1	1	0	0	1	1	1	1	0	1	1	1	1	0	1	1	1	1	1	0	0	0	0	0	0	1	0	1	1	1	0	3A	07DEF3	
110	0	1	1	0	0	0	1	1	1	1	1	1	1	1	1	0	1	1	1	1	1	0	0	0	0	0	0	1	0	1	1	1	0	3A	07DFF1	
111	0	1	1	1	0	0	1	1	0	0	1	1	1	1	1	1	0	1	1	1	1	0	0	0	0	0	0	1	0	1	1	1	0	3A	07BF33	
112	0	1	1	1	0	0	1	1	1	1	0	1	1	0	1	1	1	1	1	1	1	0	0	0	0	0	0	1	0	1	1	1	0	3A	07F6F3	
113	0	1	1	1	0	1	1	1	1	1	1	1	0	1	1	1	1	1	0	1	1	0	0	0	0	0	0	1	0	1	1	1	0	3A	06FBFB	
114	0	1	1	1	1	1	1	1	1	1	1	1	1	1	1	1	1	1	0	1	1	0	0	0	0	0	0	1	0	1	1	1	0	3A	06FFFF	
115	0	1	1	1	1	1	1	1	1	1	0	1	1	1	1	1	1	1	0	1	1	0	0	0	0	0	0	1	0	1	1	1	0	3A	06FEFF	
116	0	1	1	1	0	1	0	1	1	1	1	1	1	1	1	0	1	1	1	1	1	0	0	0	0	0	0	1	0	1	1	1	0	3A	07DFEB	
117	0	1	1	1	0	1	0	1	1	1	0	1	1	1	1	1	1	1	0	1	1	0	0	0	0	0	0	1	0	1	1	1	0	3A	06FEEB	
118	0	1	1	1	0	1	0	1	1	1	1	0	1	1	1	1	1	1	0	1	1	0	0	0	0	0	0	1	0	1	1	1	0	3A	06FDEB	
119	0	1	1	1	1	1	0	1	1	1	1	1	1	0	0	1	1	1	0	1	1	0	0	0	0	0	0	1	0	1	1	1	0	3A	06E7EF	
120	0	1	0	1	0	0	0	1	1	1	0	1	1	0	1	0	0	1	0	1	1	0	0	0	0	0	0	1	0	1	1	1	0	3A	0696E2	
121	0	1	0	1	1	0	0	1	1	1	0	1	1	1	1	0	0	1	0	1	1	0	0	0	0	0	0	1	0	1	1	1	0	3A	069EE6	
122	0	1	0	1	0	1	1	1	0	1	1	1	0	1	1	1	0	1	0	1	1	0	0	0	0	0	0	1	0	1	1	1	0	3A	06BBBA	
123	0	1	0	1	0	1	1	1	0	1	1	1	0	1	1	1	0	1	0	1	1	0	0	0	0	0	0	1	0	1	1	1	0	3A	06BBBA	
124	0	1	1	0	1	1	1	1	0	0	1	1	0	1	1	0	0	1	0	1	1	0	0	0	0	0	0	1	0	1	1	1	0	3A	069B3D	
125	0	1	1	0	1	1	1	1	0	1	1	1	1	0	1	0	0	1	0	1	1	0	0	0	0	0	0	1	0	1	1	1	0	3A	0697BD	
126	0	1	1	1	0	1	1	1	1	1	0	1	1	0	1	0	0	1	0	1	1	0	0	0	0	0	0	1	0	1	1	1	0	3A	0696FB	
127	0	1	1	1	0	1	1	1	1	1	1	1	1	1	1	0	0	1	0	1	1	0	0	0	0	0	0	1	0	1	1	1	0	3A	069FFB	
128	0	1	1	0	1	1	1	1	1	1	0	1	1	1	1	0	0	1	0	1	1	0	0	0	0	0	1	1	0	1	1	1	0	3B	069EFD	
129	0	1	1	0	0	1	0	1	1	1	0	1	1	1	1	1	0	1	0	1	1	0	0	0	0	0	0	0	1	1	1	1	0	3C	06BEE9	
130	0	1	1	1	0	1	1	1	1	1	1	1	1	1	1	1	0	1	0	1	1	0	0	0	0	0	0	0	1	1	1	1	0	3C	06BFFB	
131	0	1	1	1	1	0	1	1	1	1	1	1	0	1	1	1	1	1	0	1	1	0	0	0	0	0	1	1	1	1	1	1	0	3F	06FBF7	
132	0	1	0	0	0	1	1	1	0	1	0	1	0	0	1	1	1	1	0	1	1	0	0	0	0	0	1	1	0	1	1	1	0	3B	06F2B8	
133	0	1	1	1	0	1	1	1	0	1	0	1	1	1	1	0	1	1	0	1	1	0	0	0	0	0	1	1	0	1	1	1	0	3B	06DEBB	
134	0	1	1	1	1	1	1	1	0	1	0	1	1	1	1	1	1	1	0	1	1	0	0	0	0	0	1	1	0	1	1	1	0	3B	06FEBF	
135	0	1	1	1	0	0	1	1	1	1	0	1	1	1	1	0	1	0	1	0	0	1	0	0	0	0	0	1	0	1	1	1	0	3A	095EF3	
136	0	1	1	1	0	1	1	1	1	1	1	1	1	1	1	1	1	0	1	0	0	1	0	0	0	0	0	1	0	1	1	1	0	3A	097FFB	
137	0	1	1	1	0	1	1	1	1	1	0	1	1	1	1	1	1	0	1	0	0	1	0	0	0	0	0	1	0	1	1	1	0	3A	097EFB	
138	0	1	1	1	0	1	1	1	1	1	0	1	1	1	1	0	1	0	1	0	0	1	0	0	0	0	0	1	0	1	1	1	0	3A	095EFB	
139	0	1	1	1	1	1	1	1	1	1	1	1	1	0	1	0	1	0	1	0	0	1	0	0	0	0	0	1	0	1	1	1	0	3A	0957FF	
140	0	1	1	1	0	1	1	1	1	1	1	1	1	1	1	0	1	0	1	0	0	1	0	0	0	0	0	1	0	1	1	1	0	3A	095FFB	
141	0	1	1	0	0	1	1	1	1	1	0	1	1	1	1	0	1	0	1	0	0	1	0	0	0	0	0	1	0	1	1	1	0	3A	095EF9	
142	0	1	1	0	0	1	1	1	1	1	0	1	1	1	0	0	1	0	1	0	0	1	0	0	0	0	0	1	0	1	1	1	0	3A	094EF9	
143	0	1	1	1	0	1	1	1	1	1	0	1	1	1	0	0	1	0	1	0	0	1	0	0	0	0	0	1	0	1	1	1	0	3A	094EFB	
144	0	1	1	1	0	1	1	1	1	0	0	1	1	1	0	0	1	0	1	0	0	1	0	0	0	0	0	1	0	1	1	1	0	3A	094E7B	
145	0	1	1	1	0	1	1	1	1	0	0	1	1	1	0	1	1	0	1	0	0	1	0	0	0	0	0	1	0	1	1	1	0	3A	096E7B	
146	0	1	1	0	1	1	1	1	1	1	1	1	1	1	1	1	1	0	1	0	0	1	0	0	0	0	0	1	0	1	1	1	0	3A	097FFD	
147	0	1	1	0	0	1	1	0	1	1	0	1	1	1	1	1	0	0	1	0	0	1	0	0	0	0	0	1	0	1	1	1	0	3A	093ED9	
148	0	1	1	0	0	1	1	0	1	1	0	1	1	1	1	1	0	0	1	0	0	1	0	0	0	0	0	1	0	1	1	1	0	3A	093ED9	
149	0	1	1	1	0	1	0	0	1	1	1	1	1	1	1	1	1	1	1	1	1	0	0	0	0	0	0	1	0	1	1	1	0	3A	07FFCB	
150	0	1	1	1	1	1	1	0	1	1	0	1	1	1	1	1	1	1	1	1	1	0	0	0	0	0	0	1	0	1	1	1	0	3A	07FEDF	
151	0	1	1	1	0	1	1	1	1	1	0	1	0	0	1	0	1	1	0	0	0	1	0	0	0	0	0	1	0	1	1	1	0	3A	08D2FB	
152	0	1	1	1	0	1	1	1	1	1	1	0	0	1	1	1	0	0	0	0	0	1	0	0	0	0	0	1	0	1	1	1	0	3A	0839FB	
153	0	1	1	1	1	1	0	1	1	1	1	0	1	1	1	1	0	1	1	1	1	0	0	0	0	0	0	1	0	1	1	1	0	3A	07BDEF	
154	0	1	1	1	0	1	1	1	1	1	1	1	1	1	1	1	0	1	1	1	1	0	0	0	0	0	0	1	0	1	1	1	0	3A	07BFFB	
155	0	1	1	0	0	1	1	1	1	1	0	1	1	1	1	1	0	1	1	1	1	0	0	0	0	0	0	1	0	1	1	1	0	3A	07BEF9	
156	0	1	1	1	0	1	1	1	1	1	1	0	1	0	1	1	1	1	0	1	1	0	0	0	0	0	0	1	0	1	1	1	0	3A	06F5FB	
157	0	1	1	1	0	1	1	1	1	1	1	0	1	1	1	1	1	1	0	1	1	0	0	0	0	0	0	1	0	1	1	1	0	3A	06FDFB	
158	0	1	1	0	1	1	1	0	1	1	1	1	1	1	1	0	1	1	1	1	1	0	0	0	0	0	0	1	0	1	1	1	0	3A	07DFDD	
159	0	1	1	0	1	1	0	1	1	1	1	1	1	0	1	1	1	1	0	1	1	0	0	0	0	0	0	1	0	1	1	1	0	3A	06F7ED	
160	0	1	1	0	0	1	1	1	1	1	1	1	1	0	1	1	1	1	0	1	1	0	0	0	0	0	0	1	0	1	1	1	0	3A	06F7F9	
161	0	1	1	0	0	1	1	1	1	0	0	1	1	0	1	1	1	1	0	1	1	0	0	0	0	0	0	1	0	1	1	1	0	3A	06F679	
162	0	1	1	0	1	1	1	1	1	1	0	1	1	0	1	1	0	1	0	1	1	0	0	0	0	0	0	1	0	1	1	1	0	3A	06B6FD	
163	0	1	1	1	0	1	1	1	1	1	0	1	1	0	1	1	0	1	0	1	1	0	0	0	0	0	0	1	0	1	1	1	0	3A	06B6FB	
164	0	1	1	1	0	1	1	0	1	1	0	1	1	1	1	1	0	1	0	1	1	0	0	0	0	0	1	1	0	1	1	1	0	3B	06BEDB	
165	0	1	1	1	0	1	0	1	1	1	0	1	1	1	1	1	0	1	0	1	1	0	0	0	0	0	0	1	0	1	1	1	0	3A	06BEEB	
166	0	1	1	0	1	1	0	1	1	0	0	1	1	1	1	1	1	1	0	1	1	0	0	0	0	0	0	1	0	1	1	1	0	3A	06FE6D	
167	0	1	1	1	0	1	0	1	1	0	1	1	1	1	1	1	1	0	0	1	1	0	0	0	0	0	0	1	0	1	1	1	0	3A	067F6B	
168	0	1	1	1	0	1	0	1	1	0	1	1	1	1	1	1	1	0	0	1	1	0	0	0	0	0	0	1	0	1	1	1	0	3A	067F6B	
169	0	1	1	1	0	1	0	1	1	0	0	0	1	1	1	1	1	1	0	1	1	0	0	0	0	0	0	1	0	1	1	1	0	3A	06FC6B	
170	0	1	1	1	0	1	0	0	1	1	0	0	1	0	1	1	1	1	0	1	1	0	0	0	0	0	0	1	0	1	1	1	0	3A	06F4CB	
171	0	1	1	1	0	1	0	0	1	1	0	1	1	1	1	0	1	1	0	1	1	0	0	0	0	0	0	1	0	1	1	1	0	3A	06DECB	
172	0	1	1	0	0	1	1	1	0	0	0	1	1	1	0	1	0	1	0	1	1	0	0	0	0	0	0	1	0	1	1	1	0	3A	06AE39	
173	0	1	1	0	0	1	1	1	0	0	1	1	1	0	0	1	0	1	0	1	1	0	0	0	0	0	0	1	0	1	1	1	0	3A	06A739	
174	0	1	0	1	1	1	0	1	1	0	0	0	1	1	1	1	1	1	0	1	1	0	0	0	0	0	0	1	0	1	1	1	0	3A	06FC6E	
175	0	1	1	1	0	1	0	1	1	0	0	0	0	1	1	1	1	1	0	1	1	0	0	0	0	0	0	1	0	1	1	1	0	3A	06F86B	
176	0	1	1	1	0	1	0	1	1	0	1	1	1	0	1	1	1	1	0	1	1	0	0	0	0	0	0	1	0	1	1	1	0	3A	06F76B	
177	0	1	1	0	0	1	0	1	1	1	1	1	1	1	1	1	1	1	0	1	1	0	0	0	0	0	0	1	0	1	1	1	0	3A	06FFE9	
178	0	1	1	0	1	1	1	1	1	1	0	1	1	1	1	1	0	1	0	1	1	0	0	0	0	0	1	1	0	1	1	1	0	3B	06BEFD	
179	0	1	0	0	0	1	1	0	1	1	1	1	1	1	1	1	0	1	0	1	1	0	0	0	0	0	0	1	0	1	1	1	0	3A	06BFD8	
180	0	1	1	1	1	1	1	1	1	1	0	0	1	0	1	1	0	1	0	1	1	0	0	0	0	0	1	1	0	1	1	1	0	3B	06B4FF	
